hour, t(sec), S1 (kVA), Ang1, S2 (kVA), Ang2, S3 (kVA), Ang3, S4 (kVA), Ang4
1, 0.00000, 1217.3, -155.4, 1312.75, -156.999, 1194.02, -156.065, 0, 0
2, 0.00000, 1083.02, -155.22, 1169.61, -156.83, 1059.37, -155.902, 0, 0
3, 0.00000, 939.721, -154.999, 1015.14, -156.619, 916.435, -155.696, 0, 0
4, 0.00000, 865.541, -154.867, 935.398, -156.49, 841.656, -155.568, 0, 0
5, 0.00000, 817.378, -154.773, 883.667, -156.398, 793.705, -155.475, 0, 0
6, 0.00000, 782.457, -154.701, 845.878, -156.327, 757.999, -155.402, 0, 0
7, 0.00000, 763.179, -154.659, 823.902, -156.283, 736.661, -155.355, 0, 0
8, 0.00000, 803.024, -154.743, 865.935, -156.363, 772.315, -155.431, 0, 0
9, 0.00000, 959.931, -155.031, 1034.69, -156.642, 922.891, -155.704, 0, 0
10, 0.00000, 1146.54, -155.312, 1235.3, -156.909, 1106.24, -155.963, 0, 0
11, 0.00000, 1307.71, -155.518, 1408.19, -157.101, 1266.88, -156.147, 0, 0
12, 0.00000, 1510.77, -155.745, 1626.86, -157.308, 1469.12, -156.339, 0, 0
13, 0.00000, 1765.76, -155.999, 1901.8, -157.534, 1723.93, -156.544, 0, 0
14, 0.00000, 1844.18, -156.074, 1987.07, -157.601, 1803.86, -156.603, 0, 0
15, 0.00000, 1905.22, -156.129, 2053.71, -157.65, 1867.7, -156.648, 0, 0
16, 0.00000, 2049.65, -156.254, 2209.83, -157.759, 2015.32, -156.745, 0, 0
17, 0.00000, 1979.35, -156.192, 2134.79, -157.707, 1946.73, -156.699, 0, 0
18, 0.00000, 1744.61, -155.979, 1882.5, -157.522, 1714.38, -156.537, 0, 0
19, 0.00000, 1586.63, -155.82, 1712.23, -157.381, 1558.29, -156.411, 0, 0
20, 0.00000, 1494.76, -155.724, 1613.12, -157.296, 1468.38, -156.336, 0, 0
21, 0.00000, 1419.45, -155.642, 1531.8, -157.222, 1395.06, -156.27, 0, 0
22, 0.00000, 1365.39, -155.581, 1473.82, -157.166, 1342.18, -156.22, 0, 0
23, 0.00000, 1285.45, -155.485, 1386.43, -157.078, 1262.86, -156.14, 0, 0
24, 0.00000, 1132.19, -155.287, 1221.17, -156.894, 1110.73, -155.967, 0, 0
25, 0.00000, 971.405, -155.05, 1048.42, -156.669, 951.523, -155.751, 0, 0
26, 0.00000, 840.229, -154.819, 907.302, -156.445, 821.018, -155.531, 0, 0
27, 0.00000, 754.812, -154.641, 815.548, -156.269, 736.557, -155.357, 0, 0
28, 0.00000, 706.525, -154.526, 763.773, -156.155, 688.39, -155.241, 0, 0
29, 0.00000, 696.589, -154.502, 754.791, -156.132, 676.795, -155.209, 0, 0
30, 0.00000, 696.754, -154.501, 754.703, -156.131, 676.979, -155.209, 0, 0
31, 0.00000, 779.922, -154.689, 844.239, -156.316, 759.852, -155.4, 0, 0
32, 0.00000, 860.259, -154.851, 929.103, -156.472, 837.02, -155.555, 0, 0
33, 0.00000, 838.049, -154.813, 903.761, -156.434, 811.145, -155.51, 0, 0
34, 0.00000, 914.071, -154.95, 984.811, -156.566, 883.908, -155.64, 0, 0
35, 0.00000, 979.661, -155.061, 1054.48, -156.672, 947.403, -155.744, 0, 0
36, 0.00000, 1119.19, -155.27, 1203.8, -156.87, 1084.52, -155.936, 0, 0
37, 0.00000, 1344.29, -155.558, 1446.22, -157.14, 1308.82, -156.191, 0, 0
38, 0.00000, 1531.99, -155.767, 1648.59, -157.33, 1496.46, -156.365, 0, 0
39, 0.00000, 1664.88, -155.901, 1792.05, -157.451, 1630.1, -156.475, 0, 0
40, 0.00000, 1768.71, -156, 1903.32, -157.54, 1734.42, -156.554, 0, 0
41, 0.00000, 1866.46, -156.091, 2009.85, -157.62, 1834.06, -156.626, 0, 0
42, 0.00000, 1884.35, -156.107, 2030.63, -157.634, 1854.55, -156.639, 0, 0
43, 0.00000, 1952.54, -156.169, 2104.73, -157.689, 1923.9, -156.687, 0, 0
44, 0.00000, 1912.21, -156.131, 2061.86, -157.657, 1885.85, -156.66, 0, 0
45, 0.00000, 1779.27, -156.007, 1918.49, -157.549, 1753.28, -156.564, 0, 0
46, 0.00000, 1702.37, -155.935, 1835.67, -157.485, 1676.5, -156.507, 0, 0
47, 0.00000, 1552.1, -155.782, 1673.01, -157.349, 1527.79, -156.387, 0, 0
48, 0.00000, 1370.53, -155.584, 1477.66, -157.17, 1347.9, -156.224, 0, 0
49, 0.00000, 1132.45, -155.288, 1221.82, -156.896, 1111.65, -155.968, 0, 0
50, 0.00000, 988.7, -155.077, 1066.95, -156.694, 968.676, -155.777, 0, 0
51, 0.00000, 862.591, -154.861, 930.979, -156.485, 842.589, -155.571, 0, 0
52, 0.00000, 766.962, -154.668, 828.347, -156.296, 747.321, -155.381, 0, 0
53, 0.00000, 711.005, -154.538, 768.372, -156.166, 691.914, -155.25, 0, 0
54, 0.00000, 718.102, -154.551, 776.196, -156.179, 699.212, -155.265, 0, 0
55, 0.00000, 776.584, -154.682, 839.477, -156.308, 755.845, -155.393, 0, 0
56, 0.00000, 867.583, -154.864, 935.813, -156.484, 843.851, -155.568, 0, 0
57, 0.00000, 830.515, -154.797, 894.755, -156.418, 804.452, -155.498, 0, 0
58, 0.00000, 848.546, -154.831, 913.38, -156.449, 819.938, -155.527, 0, 0
59, 0.00000, 944.569, -155.001, 1016.24, -156.614, 914.423, -155.691, 0, 0
60, 0.00000, 992.254, -155.08, 1066.76, -156.69, 961.046, -155.765, 0, 0
61, 0.00000, 1054.34, -155.176, 1133.53, -156.782, 1021.47, -155.852, 0, 0
62, 0.00000, 1144.55, -155.304, 1230.87, -156.904, 1111.86, -155.97, 0, 0
63, 0.00000, 1233.1, -155.421, 1326.49, -157.013, 1200.37, -156.074, 0, 0
64, 0.00000, 1340.92, -155.553, 1443.81, -157.137, 1309.28, -156.189, 0, 0
65, 0.00000, 1451.77, -155.679, 1564.16, -157.253, 1421.87, -156.297, 0, 0
66, 0.00000, 1561.04, -155.796, 1682.5, -157.36, 1534.36, -156.396, 0, 0
67, 0.00000, 1643.97, -155.88, 1772.33, -157.436, 1617.85, -156.464, 0, 0
68, 0.00000, 1625.56, -155.859, 1751.99, -157.418, 1601.13, -156.449, 0, 0
69, 0.00000, 1501.43, -155.729, 1618.82, -157.302, 1479.37, -156.346, 0, 0
70, 0.00000, 1437.25, -155.66, 1549.79, -157.24, 1415.21, -156.289, 0, 0
71, 0.00000, 1367.11, -155.581, 1474.24, -157.167, 1345.5, -156.223, 0, 0
72, 0.00000, 1195.76, -155.372, 1289.92, -156.974, 1175.17, -156.043, 0, 0
73, 0.00000, 1030.21, -155.141, 1111.16, -156.755, 1009.3, -155.835, 0, 0
74, 0.00000, 864.81, -154.868, 935.205, -156.494, 844.418, -155.575, 0, 0
75, 0.00000, 759.452, -154.654, 821.744, -156.283, 739.806, -155.365, 0, 0
76, 0.00000, 701.263, -154.516, 759.139, -156.146, 681.087, -155.223, 0, 0
77, 0.00000, 649.283, -154.381, 703.576, -156.011, 630.145, -155.085, 0, 0
78, 0.00000, 630.346, -154.325, 683.195, -155.954, 611.075, -155.026, 0, 0
79, 0.00000, 634.252, -154.334, 687.579, -155.964, 614.956, -155.036, 0, 0
80, 0.00000, 655.191, -154.391, 708.107, -156.016, 632.195, -155.087, 0, 0
81, 0.00000, 770.555, -154.668, 831.091, -156.288, 743.993, -155.366, 0, 0
82, 0.00000, 980.652, -155.063, 1056.52, -156.676, 951.053, -155.749, 0, 0
83, 0.00000, 1202.68, -155.382, 1294.59, -156.977, 1170.31, -156.04, 0, 0
84, 0.00000, 1446.8, -155.673, 1557.57, -157.245, 1412.17, -156.287, 0, 0
85, 0.00000, 1609.54, -155.847, 1733.02, -157.403, 1574.64, -156.43, 0, 0
86, 0.00000, 1737.5, -155.972, 1870.17, -157.514, 1701.3, -156.53, 0, 0
87, 0.00000, 1863.66, -156.09, 2006.27, -157.617, 1827.11, -156.621, 0, 0
88, 0.00000, 1951.55, -156.168, 2101.63, -157.685, 1915.7, -156.681, 0, 0
89, 0.00000, 1970.9, -156.184, 2123.38, -157.7, 1936.77, -156.694, 0, 0
90, 0.00000, 2019.05, -156.227, 2176.73, -157.739, 1988.72, -156.729, 0, 0
91, 0.00000, 1968.72, -156.181, 2122.38, -157.699, 1938.96, -156.695, 0, 0
92, 0.00000, 1910.1, -156.128, 2059.02, -157.655, 1882.77, -156.657, 0, 0
93, 0.00000, 1766.11, -155.997, 1904.46, -157.54, 1740.42, -156.557, 0, 0
94, 0.00000, 1636.1, -155.869, 1764.98, -157.427, 1613.1, -156.457, 0, 0
95, 0.00000, 1478.48, -155.704, 1594.29, -157.28, 1456.4, -156.325, 0, 0
96, 0.00000, 1334.5, -155.543, 1439.22, -157.132, 1313.65, -156.191, 0, 0
97, 0.00000, 1124.7, -155.277, 1213.37, -156.886, 1104.79, -155.96, 0, 0
98, 0.00000, 950.406, -155.017, 1026.87, -156.637, 930.37, -155.719, 0, 0
99, 0.00000, 827.021, -154.794, 894.031, -156.421, 807.317, -155.505, 0, 0
100, 0.00000, 745.163, -154.62, 806.075, -156.25, 725.439, -155.331, 0, 0
101, 0.00000, 688.567, -154.484, 745.557, -156.114, 669.153, -155.192, 0, 0
102, 0.00000, 675.859, -154.449, 731.617, -156.077, 655.488, -155.153, 0, 0
103, 0.00000, 710.866, -154.535, 769.419, -156.162, 688.704, -155.237, 0, 0
104, 0.00000, 778.625, -154.69, 841.527, -156.313, 751.29, -155.383, 0, 0
105, 0.00000, 771.727, -154.682, 834.115, -156.305, 739.509, -155.362, 0, 0
106, 0.00000, 819.936, -154.781, 885.567, -156.4, 784.553, -155.456, 0, 0
107, 0.00000, 996.161, -155.091, 1075.27, -156.7, 958.937, -155.759, 0, 0
108, 0.00000, 1234.45, -155.428, 1331.49, -157.019, 1196.15, -156.069, 0, 0
109, 0.00000, 1460.54, -155.692, 1575.08, -157.261, 1421.22, -156.295, 0, 0
110, 0.00000, 1690.93, -155.928, 1823.79, -157.473, 1652.22, -156.489, 0, 0
111, 0.00000, 1822.28, -156.055, 1965.07, -157.585, 1783.72, -156.589, 0, 0
112, 0.00000, 1958.22, -156.175, 2111.55, -157.69, 1919.63, -156.682, 0, 0
113, 0.00000, 2030.04, -156.24, 2189.73, -157.746, 1993.65, -156.732, 0, 0
114, 0.00000, 2114.08, -156.311, 2281.32, -157.809, 2081.43, -156.788, 0, 0
115, 0.00000, 2144.8, -156.336, 2314.82, -157.831, 2114.6, -156.808, 0, 0
116, 0.00000, 2080.03, -156.279, 2244.66, -157.784, 2053.47, -156.769, 0, 0
117, 0.00000, 1974.14, -156.186, 2129.8, -157.705, 1948.82, -156.701, 0, 0
118, 0.00000, 1935.11, -156.152, 2087.62, -157.676, 1910.06, -156.676, 0, 0
119, 0.00000, 1786.28, -156.017, 1927.34, -157.558, 1762.49, -156.573, 0, 0
120, 0.00000, 1611.15, -155.845, 1737.71, -157.407, 1589.1, -156.44, 0, 0
121, 0.00000, 1348.67, -155.56, 1454.25, -157.148, 1326.78, -156.206, 0, 0
122, 0.00000, 1160.95, -155.328, 1253.62, -156.932, 1138.76, -156.001, 0, 0
123, 0.00000, 1026.48, -155.136, 1108.69, -156.751, 1005.23, -155.829, 0, 0
124, 0.00000, 953.666, -155.02, 1030.46, -156.64, 931.936, -155.719, 0, 0
125, 0.00000, 896.37, -154.922, 969.191, -156.545, 875.49, -155.627, 0, 0
126, 0.00000, 856.068, -154.848, 925.747, -156.472, 834.79, -155.554, 0, 0
127, 0.00000, 875.757, -154.883, 947.949, -156.507, 854.896, -155.588, 0, 0
128, 0.00000, 911.992, -154.949, 987.548, -156.571, 890.117, -155.649, 0, 0
129, 0.00000, 951.618, -155.018, 1030.24, -156.636, 926.669, -155.709, 0, 0
130, 0.00000, 1099.43, -155.245, 1189.11, -156.851, 1071.92, -155.917, 0, 0
131, 0.00000, 1282.16, -155.486, 1385.61, -157.077, 1253.22, -156.13, 0, 0
132, 0.00000, 1510.8, -155.745, 1632.26, -157.313, 1481.23, -156.348, 0, 0
133, 0.00000, 1699.23, -155.936, 1835.59, -157.484, 1669.47, -156.502, 0, 0
134, 0.00000, 1871.54, -156.098, 2020.51, -157.625, 1840.27, -156.627, 0, 0
135, 0.00000, 1898.42, -156.123, 2049.4, -157.647, 1867.09, -156.646, 0, 0
136, 0.00000, 1907.52, -156.131, 2059.68, -157.654, 1877.04, -156.653, 0, 0
137, 0.00000, 1869.88, -156.096, 2018.83, -157.624, 1839.9, -156.627, 0, 0
138, 0.00000, 1870.1, -156.096, 2018.6, -157.625, 1840.27, -156.628, 0, 0
139, 0.00000, 1874.89, -156.099, 2022.47, -157.628, 1845.25, -156.631, 0, 0
140, 0.00000, 1757.95, -155.988, 1896.01, -157.531, 1731.01, -156.548, 0, 0
141, 0.00000, 1663.55, -155.897, 1794.5, -157.451, 1638.67, -156.478, 0, 0
142, 0.00000, 1590.25, -155.823, 1715.69, -157.387, 1566.98, -156.421, 0, 0
143, 0.00000, 1517.04, -155.747, 1636.23, -157.318, 1495.93, -156.361, 0, 0
144, 0.00000, 1379.24, -155.595, 1487.93, -157.181, 1359.91, -156.237, 0, 0
145, 0.00000, 1196.4, -155.372, 1290.49, -156.975, 1176.97, -156.046, 0, 0
146, 0.00000, 1032.93, -155.146, 1115.53, -156.761, 1012.89, -155.84, 0, 0
147, 0.00000, 916.225, -154.957, 989.622, -156.579, 896.533, -155.664, 0, 0
148, 0.00000, 835.722, -154.809, 903.061, -156.435, 815.909, -155.52, 0, 0
149, 0.00000, 794.112, -154.724, 858.138, -156.35, 773.772, -155.435, 0, 0
150, 0.00000, 766.667, -154.665, 828.73, -156.292, 745.274, -155.373, 0, 0
151, 0.00000, 765.296, -154.662, 827.572, -156.288, 742.198, -155.366, 0, 0
152, 0.00000, 788.583, -154.712, 852.464, -156.336, 763.075, -155.41, 0, 0
153, 0.00000, 898.041, -154.923, 971.243, -156.542, 871.191, -155.615, 0, 0
154, 0.00000, 1035.53, -155.15, 1118.97, -156.76, 1006.76, -155.828, 0, 0
155, 0.00000, 1135.48, -155.295, 1226.92, -156.898, 1106.54, -155.961, 0, 0
156, 0.00000, 1220.54, -155.408, 1318.65, -157.004, 1191.56, -156.062, 0, 0
157, 0.00000, 1288.32, -155.493, 1391.78, -157.083, 1259.14, -156.136, 0, 0
158, 0.00000, 1339.16, -155.554, 1445.88, -157.138, 1308.34, -156.187, 0, 0
159, 0.00000, 1356.5, -155.574, 1464.43, -157.156, 1324.58, -156.202, 0, 0
160, 0.00000, 1469.96, -155.702, 1586.77, -157.273, 1438.04, -156.311, 0, 0
161, 0.00000, 1598.43, -155.837, 1724.96, -157.395, 1566.55, -156.422, 0, 0
162, 0.00000, 1758, -155.991, 1897.09, -157.533, 1728.26, -156.547, 0, 0
163, 0.00000, 1765.08, -155.998, 1904.73, -157.539, 1737.16, -156.554, 0, 0
164, 0.00000, 1755.67, -155.988, 1894.01, -157.532, 1730.48, -156.549, 0, 0
165, 0.00000, 1662, -155.895, 1792.45, -157.45, 1636.92, -156.476, 0, 0
166, 0.00000, 1570, -155.802, 1693.56, -157.367, 1545.95, -156.403, 0, 0
167, 0.00000, 1478.75, -155.706, 1594.81, -157.281, 1456.64, -156.326, 0, 0
168, 0.00000, 1297.73, -155.499, 1399.6, -157.092, 1277.23, -156.154, 0, 0
169, 0.00000, 1105.88, -155.251, 1193.29, -156.861, 1086.46, -155.937, 0, 0
170, 0.00000, 946.62, -155.01, 1022.76, -156.631, 927.241, -155.714, 0, 0
171, 0.00000, 846.675, -154.831, 915.327, -156.457, 827.88, -155.543, 0, 0
172, 0.00000, 750.734, -154.634, 812.078, -156.263, 731.465, -155.346, 0, 0
173, 0.00000, 697.36, -154.505, 754.638, -156.135, 678.28, -155.216, 0, 0
174, 0.00000, 676.403, -154.45, 731.907, -156.079, 656.184, -155.156, 0, 0
175, 0.00000, 665.906, -154.423, 720.877, -156.051, 644.049, -155.122, 0, 0
176, 0.00000, 727.424, -154.574, 786.794, -156.199, 702.429, -155.27, 0, 0
177, 0.00000, 859.619, -154.852, 928.747, -156.471, 829.722, -155.54, 0, 0
178, 0.00000, 1037.22, -155.153, 1119.2, -156.76, 1003.2, -155.824, 0, 0
179, 0.00000, 1176.63, -155.352, 1269, -156.948, 1140.08, -156.003, 0, 0
180, 0.00000, 1382.33, -155.606, 1490.34, -157.183, 1345.29, -156.226, 0, 0
181, 0.00000, 1649.66, -155.887, 1778.46, -157.437, 1612.07, -156.457, 0, 0
182, 0.00000, 1881.53, -156.106, 2028.12, -157.63, 1842.86, -156.629, 0, 0
183, 0.00000, 2011.93, -156.222, 2168.2, -157.729, 1973.08, -156.718, 0, 0
184, 0.00000, 2097.41, -156.297, 2261.38, -157.795, 2060.81, -156.775, 0, 0
185, 0.00000, 2190.58, -156.374, 2362.29, -157.862, 2155.83, -156.833, 0, 0
186, 0.00000, 2197.61, -156.378, 2370.15, -157.867, 2166.02, -156.839, 0, 0
187, 0.00000, 2271.07, -156.439, 2449.23, -157.919, 2241.47, -156.885, 0, 0
188, 0.00000, 2225.06, -156.398, 2398.87, -157.886, 2197.55, -156.858, 0, 0
189, 0.00000, 2165.83, -156.349, 2335.37, -157.846, 2139.82, -156.823, 0, 0
190, 0.00000, 2032.58, -156.238, 2191.73, -157.75, 2007.88, -156.741, 0, 0
191, 0.00000, 1856.64, -156.081, 2001.45, -157.615, 1833.57, -156.624, 0, 0
192, 0.00000, 1581.25, -155.814, 1704.72, -157.379, 1559.34, -156.416, 0, 0
193, 0.00000, 1328.82, -155.537, 1432.93, -157.127, 1308.14, -156.187, 0, 0
194, 0.00000, 1139.08, -155.297, 1228.94, -156.904, 1119.59, -155.978, 0, 0
195, 0.00000, 1025.61, -155.133, 1107.24, -156.749, 1007.46, -155.832, 0, 0
196, 0.00000, 942.349, -155, 1017.17, -156.62, 923.938, -155.708, 0, 0
197, 0.00000, 909.395, -154.944, 983.458, -156.567, 890.348, -155.651, 0, 0
198, 0.00000, 894.704, -154.917, 967.393, -156.54, 875.364, -155.626, 0, 0
199, 0.00000, 955.935, -155.021, 1033.28, -156.64, 936.016, -155.724, 0, 0
200, 0.00000, 981.231, -155.063, 1058.83, -156.678, 957.597, -155.758, 0, 0
201, 0.00000, 1012.37, -155.112, 1091.22, -156.724, 985.63, -155.8, 0, 0
202, 0.00000, 1042.75, -155.159, 1122.55, -156.767, 1012.06, -155.838, 0, 0
203, 0.00000, 1113.93, -155.262, 1198.28, -156.864, 1080.7, -155.931, 0, 0
204, 0.00000, 1273.8, -155.472, 1370.15, -157.061, 1239.43, -156.118, 0, 0
205, 0.00000, 1516.54, -155.746, 1630.05, -157.312, 1481.01, -156.35, 0, 0
206, 0.00000, 1783.52, -156.011, 1917.31, -157.549, 1748.03, -156.563, 0, 0
207, 0.00000, 1889.4, -156.111, 2031.17, -157.636, 1853.24, -156.64, 0, 0
208, 0.00000, 1917.94, -156.135, 2062.53, -157.658, 1883.39, -156.659, 0, 0
209, 0.00000, 1967.66, -156.18, 2117.41, -157.697, 1934.97, -156.694, 0, 0
210, 0.00000, 1931.09, -156.146, 2079.6, -157.67, 1901.89, -156.671, 0, 0
211, 0.00000, 1940.9, -156.156, 2089.92, -157.678, 1911.49, -156.678, 0, 0
212, 0.00000, 1879.07, -156.099, 2023.85, -157.629, 1851.02, -156.635, 0, 0
213, 0.00000, 1794.21, -156.02, 1932.56, -157.561, 1767.8, -156.576, 0, 0
214, 0.00000, 1705.34, -155.936, 1837.46, -157.487, 1680.01, -156.51, 0, 0
215, 0.00000, 1599.74, -155.831, 1724.46, -157.394, 1576.39, -156.428, 0, 0
216, 0.00000, 1379.82, -155.596, 1487.23, -157.18, 1356.83, -156.235, 0, 0
217, 0.00000, 1149.51, -155.311, 1239.05, -156.916, 1126.99, -155.987, 0, 0
218, 0.00000, 981.529, -155.066, 1058.26, -156.683, 959.491, -155.764, 0, 0
219, 0.00000, 894.223, -154.917, 964.345, -156.538, 872.89, -155.624, 0, 0
220, 0.00000, 815.915, -154.769, 880.146, -156.393, 795.462, -155.481, 0, 0
221, 0.00000, 768.816, -154.669, 829.936, -156.296, 748.856, -155.382, 0, 0
222, 0.00000, 776.625, -154.684, 838.584, -156.309, 756.976, -155.398, 0, 0
223, 0.00000, 833.256, -154.798, 899.092, -156.421, 812.689, -155.51, 0, 0
224, 0.00000, 889.522, -154.904, 958.463, -156.523, 866.491, -155.609, 0, 0
225, 0.00000, 903.307, -154.93, 971.777, -156.547, 877.112, -155.63, 0, 0
226, 0.00000, 948.856, -155.008, 1020.29, -156.622, 921.188, -155.702, 0, 0
227, 0.00000, 999.976, -155.091, 1075.17, -156.702, 971.584, -155.78, 0, 0
228, 0.00000, 1146.51, -155.305, 1232.12, -156.905, 1115.04, -155.974, 0, 0
229, 0.00000, 1235.27, -155.424, 1328.94, -157.016, 1202.41, -156.076, 0, 0
230, 0.00000, 1341.74, -155.553, 1442.91, -157.136, 1307.79, -156.189, 0, 0
231, 0.00000, 1408.78, -155.63, 1515.13, -157.207, 1374.97, -156.254, 0, 0
232, 0.00000, 1525.34, -155.758, 1640.93, -157.323, 1491.7, -156.36, 0, 0
233, 0.00000, 1653.73, -155.89, 1780.53, -157.442, 1622.14, -156.468, 0, 0
234, 0.00000, 1846.8, -156.071, 1989.71, -157.604, 1819.24, -156.614, 0, 0
235, 0.00000, 1960.19, -156.175, 2112.11, -157.696, 1933.84, -156.694, 0, 0
236, 0.00000, 1921.06, -156.139, 2071.6, -157.665, 1895.78, -156.666, 0, 0
237, 0.00000, 1847.85, -156.072, 1992.39, -157.606, 1823.92, -156.616, 0, 0
238, 0.00000, 1751.74, -155.981, 1889.04, -157.528, 1729.76, -156.548, 0, 0
239, 0.00000, 1668.89, -155.901, 1800.08, -157.457, 1647.7, -156.486, 0, 0
240, 0.00000, 1449.9, -155.676, 1564.28, -157.254, 1429.72, -156.304, 0, 0
241, 0.00000, 1238.21, -155.425, 1334.94, -157.024, 1216.15, -156.089, 0, 0
242, 0.00000, 1077.61, -155.212, 1163.84, -156.823, 1055.28, -155.897, 0, 0
243, 0.00000, 985.868, -155.073, 1064.95, -156.69, 964.281, -155.769, 0, 0
244, 0.00000, 919.557, -154.962, 993.406, -156.583, 897.649, -155.664, 0, 0
245, 0.00000, 871.072, -154.876, 941.515, -156.499, 849.688, -155.581, 0, 0
246, 0.00000, 893.861, -154.915, 966.041, -156.537, 871.399, -155.618, 0, 0
247, 0.00000, 954.327, -155.019, 1030.94, -156.636, 929.911, -155.714, 0, 0
248, 0.00000, 1034.69, -155.148, 1117.71, -156.759, 1008.55, -155.831, 0, 0
249, 0.00000, 1000.16, -155.097, 1080.61, -156.711, 971.198, -155.779, 0, 0
250, 0.00000, 995.983, -155.091, 1075.81, -156.704, 964.259, -155.768, 0, 0
251, 0.00000, 1001.46, -155.1, 1082.1, -156.712, 969.789, -155.776, 0, 0
252, 0.00000, 1050.1, -155.174, 1134.65, -156.782, 1018.91, -155.846, 0, 0
253, 0.00000, 1164.15, -155.333, 1256.07, -156.933, 1133.36, -155.995, 0, 0
254, 0.00000, 1300.76, -155.51, 1405.42, -157.097, 1268.2, -156.146, 0, 0
255, 0.00000, 1510.74, -155.745, 1631.15, -157.312, 1477.53, -156.344, 0, 0
256, 0.00000, 1574.06, -155.813, 1699.28, -157.372, 1540.07, -156.399, 0, 0
257, 0.00000, 1698.79, -155.938, 1834.08, -157.485, 1666.65, -156.502, 0, 0
258, 0.00000, 1670.03, -155.907, 1803.35, -157.458, 1640.5, -156.479, 0, 0
259, 0.00000, 1706.87, -155.944, 1843.02, -157.491, 1679.44, -156.511, 0, 0
260, 0.00000, 1731.96, -155.966, 1868.45, -157.512, 1706.13, -156.531, 0, 0
261, 0.00000, 1704.49, -155.938, 1838.17, -157.487, 1678.69, -156.51, 0, 0
262, 0.00000, 1599.54, -155.832, 1725.29, -157.394, 1575.31, -156.427, 0, 0
263, 0.00000, 1492.38, -155.72, 1609.76, -157.294, 1469.78, -156.338, 0, 0
264, 0.00000, 1270.3, -155.465, 1370.03, -157.061, 1248.5, -156.124, 0, 0
265, 0.00000, 1054.11, -155.177, 1137.24, -156.791, 1033.08, -155.868, 0, 0
266, 0.00000, 879.649, -154.895, 950.796, -156.52, 858.737, -155.601, 0, 0
